 (2022-06-02 22:43:42.714008)  can1  700   [8]  01 02 00 00 06 00 00 00
 (2022-06-02 22:43:42.815031)  can1  700   [8]  01 02 00 00 06 00 00 00
 (2022-06-02 22:43:42.915024)  can1  700   [8]  01 02 00 00 06 00 00 00
 (2022-06-02 22:43:43.015054)  can1  700   [8]  01 02 00 00 06 00 00 00
 (2022-06-02 22:43:43.115043)  can1  700   [8]  01 02 00 00 06 00 00 00
 (2022-06-02 22:43:43.214022)  can1  700   [8]  01 02 00 00 06 00 00 00
 (2022-06-02 22:43:43.315041)  can1  700   [8]  01 02 00 00 06 00 00 00
 (2022-06-02 22:43:43.415061)  can1  700   [8]  01 02 00 00 06 00 00 00
 (2022-06-02 22:43:43.515042)  can1  700   [8]  01 02 00 00 06 00 00 00
 (2022-06-02 22:43:43.613992)  can1  700   [8]  01 02 00 00 06 00 00 00
 (2022-06-02 22:43:43.715036)  can1  700   [8]  01 02 00 00 06 00 00 00
 (2022-06-02 22:43:43.815039)  can1  700   [8]  01 02 00 00 06 00 00 00
 (2022-06-02 22:43:43.915060)  can1  700   [8]  01 02 00 00 06 00 00 00
 (2022-06-02 22:43:44.015038)  can1  700   [8]  01 02 00 00 06 00 00 00
 (2022-06-02 22:43:44.115035)  can1  700   [8]  01 02 00 00 06 00 00 00
 (2022-06-02 22:43:44.215058)  can1  700   [8]  01 02 00 00 06 00 00 00
 (2022-06-02 22:43:44.315029)  can1  700   [8]  01 02 00 00 06 00 00 00
 (2022-06-02 22:43:44.415038)  can1  700   [8]  01 02 00 00 06 00 00 00
 (2022-06-02 22:43:44.515035)  can1  700   [8]  01 02 00 00 06 00 00 00
 (2022-06-02 22:43:44.615024)  can1  700   [8]  01 02 00 00 06 00 00 00
 (2022-06-02 22:43:44.715028)  can1  700   [8]  01 02 00 00 06 00 00 00
 (2022-06-02 22:43:44.815027)  can1  700   [8]  01 02 00 00 06 00 00 00
 (2022-06-02 22:43:44.915025)  can1  700   [8]  01 02 00 00 06 00 00 00
 (2022-06-02 22:43:45.015059)  can1  700   [8]  01 02 00 00 06 00 00 00
 (2022-06-02 22:43:45.115092)  can1  700   [8]  01 02 00 00 06 00 00 00
 (2022-06-02 22:43:45.215051)  can1  700   [8]  01 02 00 00 06 00 00 00
 (2022-06-02 22:43:45.315065)  can1  700   [8]  01 02 00 00 06 00 00 00
 (2022-06-02 22:43:45.415059)  can1  700   [8]  01 02 00 00 06 00 00 00
 (2022-06-02 22:43:45.515046)  can1  700   [8]  01 02 00 00 06 00 00 00
 (2022-06-02 22:43:45.615060)  can1  700   [8]  01 02 00 00 06 00 00 00
 (2022-06-02 22:43:45.715041)  can1  700   [8]  01 02 00 00 06 00 00 00
 (2022-06-02 22:43:45.815029)  can1  700   [8]  01 02 00 00 06 00 00 00
 (2022-06-02 22:43:45.915037)  can1  700   [8]  01 02 00 00 06 00 00 00
 (2022-06-02 22:43:46.015059)  can1  700   [8]  01 02 00 00 06 00 00 00
 (2022-06-02 22:43:46.115074)  can1  700   [8]  01 02 00 00 06 00 00 00
 (2022-06-02 22:43:46.215051)  can1  700   [8]  01 02 00 00 06 00 00 00
 (2022-06-02 22:43:46.315042)  can1  700   [8]  01 02 00 00 06 00 00 00
 (2022-06-02 22:43:46.415027)  can1  700   [8]  01 02 00 00 06 00 00 00
 (2022-06-02 22:43:46.515027)  can1  700   [8]  01 02 00 00 06 00 00 00
 (2022-06-02 22:43:46.615023)  can1  700   [8]  01 02 00 00 06 00 00 00
 (2022-06-02 22:43:46.715022)  can1  700   [8]  01 02 00 00 06 00 00 00
 (2022-06-02 22:43:46.815018)  can1  700   [8]  01 02 00 00 06 00 00 00
 (2022-06-02 22:43:46.915018)  can1  700   [8]  01 02 00 00 06 00 00 00
 (2022-06-02 22:43:47.015023)  can1  700   [8]  01 02 00 00 06 00 00 00
 (2022-06-02 22:43:47.115017)  can1  700   [8]  01 02 00 00 06 00 00 00
 (2022-06-02 22:43:47.215015)  can1  700   [8]  01 02 00 00 06 00 00 00
 (2022-06-02 22:43:47.315016)  can1  700   [8]  01 02 00 00 06 00 00 00
 (2022-06-02 22:43:47.415015)  can1  700   [8]  01 02 00 00 06 00 00 00
 (2022-06-02 22:43:47.515041)  can1  700   [8]  01 02 00 00 06 00 00 00
 (2022-06-02 22:43:47.615020)  can1  700   [8]  01 02 00 00 06 00 00 00
 (2022-06-02 22:43:47.715016)  can1  700   [8]  01 02 00 00 06 00 00 00
 (2022-06-02 22:43:47.815024)  can1  700   [8]  01 02 00 00 06 00 00 00
 (2022-06-02 22:43:47.914997)  can1  700   [8]  01 02 00 00 06 00 00 00
 (2022-06-02 22:43:48.015022)  can1  700   [8]  01 02 00 00 06 00 00 00
 (2022-06-02 22:43:48.115069)  can1  700   [8]  01 02 00 00 06 00 00 00
 (2022-06-02 22:43:48.215021)  can1  700   [8]  01 02 00 00 06 00 00 00
 (2022-06-02 22:43:48.315034)  can1  700   [8]  01 02 00 00 06 00 00 00
 (2022-06-02 22:43:48.415004)  can1  700   [8]  01 02 00 00 06 00 00 00
 (2022-06-02 22:43:48.515001)  can1  700   [8]  01 02 00 00 06 00 00 00
 (2022-06-02 22:43:48.614993)  can1  700   [8]  01 02 00 00 06 00 00 00
 (2022-06-02 22:43:48.714972)  can1  700   [8]  01 02 00 00 06 00 00 00
 (2022-06-02 22:43:48.815002)  can1  700   [8]  01 02 00 00 06 00 00 00
 (2022-06-02 22:43:48.914995)  can1  700   [8]  01 02 00 00 06 00 00 00
 (2022-06-02 22:43:49.014995)  can1  700   [8]  01 02 00 00 06 00 00 00
 (2022-06-02 22:43:49.114992)  can1  700   [8]  01 02 00 00 06 00 00 00
 (2022-06-02 22:43:49.215026)  can1  700   [8]  01 02 00 00 06 00 00 00
 (2022-06-02 22:43:49.314994)  can1  700   [8]  01 02 00 00 06 00 00 00
 (2022-06-02 22:43:49.414991)  can1  700   [8]  01 02 00 00 06 00 00 00
 (2022-06-02 22:43:49.514998)  can1  700   [8]  01 02 00 00 06 00 00 00
 (2022-06-02 22:43:49.614990)  can1  700   [8]  01 02 00 00 06 00 00 00
 (2022-06-02 22:43:49.715019)  can1  700   [8]  01 02 00 00 06 00 00 00
 (2022-06-02 22:43:49.814990)  can1  700   [8]  01 02 00 00 06 00 00 00
 (2022-06-02 22:47:32.773761)  can1  700   [8]  01 02 00 00 06 00 00 00
 (2022-06-02 22:47:32.873760)  can1  700   [8]  01 02 00 00 06 00 00 00
 (2022-06-02 22:47:32.973758)  can1  700   [8]  01 02 00 00 06 00 00 00
 (2022-06-02 22:47:33.073774)  can1  700   [8]  01 02 00 00 06 00 00 00
 (2022-06-02 22:47:33.173770)  can1  700   [8]  01 02 00 00 06 00 00 00
 (2022-06-02 22:47:33.273772)  can1  700   [8]  01 02 00 00 06 00 00 00
 (2022-06-02 22:47:33.373770)  can1  700   [8]  01 02 00 00 06 00 00 00
 (2022-06-02 22:47:33.473768)  can1  700   [8]  01 02 00 00 06 00 00 00
 (2022-06-02 22:47:33.573771)  can1  700   [8]  01 02 00 00 06 00 00 00
 (2022-06-02 22:47:33.673765)  can1  700   [8]  01 02 00 00 06 00 00 00
 (2022-06-02 22:47:33.773764)  can1  700   [8]  01 02 00 00 06 00 00 00
 (2022-06-02 22:47:33.873737)  can1  700   [8]  01 02 00 00 06 00 00 00
 (2022-06-02 22:47:33.973746)  can1  700   [8]  01 02 00 00 06 00 00 00
 (2022-06-02 22:47:34.073779)  can1  700   [8]  01 02 00 00 06 00 00 00
 (2022-06-02 22:47:34.173766)  can1  700   [8]  01 02 00 00 06 00 00 00
 (2022-06-02 22:47:34.273773)  can1  700   [8]  01 02 00 00 06 00 00 00
 (2022-06-02 22:47:34.373772)  can1  700   [8]  01 02 00 00 06 00 00 00
 (2022-06-02 22:47:34.473766)  can1  700   [8]  01 02 00 00 06 00 00 00
 (2022-06-02 22:47:34.573762)  can1  700   [8]  01 02 00 00 06 00 00 00
 (2022-06-02 22:47:34.675335)  can1  700   [8]  01 02 00 00 06 00 00 00
 (2022-06-02 22:47:34.773744)  can1  700   [8]  01 02 00 00 06 00 00 00
 (2022-06-02 22:47:34.873746)  can1  700   [8]  01 02 00 00 06 00 00 00
 (2022-06-02 22:47:34.973755)  can1  700   [8]  01 02 00 00 06 00 00 00
 (2022-06-02 22:47:35.073795)  can1  700   [8]  01 02 00 00 06 00 00 00
 (2022-06-02 22:47:35.173767)  can1  700   [8]  01 02 00 00 06 00 00 00
 (2022-06-02 22:47:35.273770)  can1  700   [8]  01 02 00 00 06 00 00 00
 (2022-06-02 22:47:35.373768)  can1  700   [8]  01 02 00 00 06 00 00 00
 (2022-06-02 22:47:35.473765)  can1  700   [8]  01 02 00 00 06 00 00 00
 (2022-06-02 22:47:35.573760)  can1  700   [8]  01 02 00 00 06 00 00 00
 (2022-06-02 22:47:35.673768)  can1  700   [8]  01 02 00 00 06 00 00 00
 (2022-06-02 22:47:35.773753)  can1  700   [8]  01 02 00 00 06 00 00 00
 (2022-06-02 22:47:35.873765)  can1  700   [8]  01 02 00 00 06 00 00 00
 (2022-06-02 22:47:35.973765)  can1  700   [8]  01 02 00 00 06 00 00 00
 (2022-06-02 22:47:36.073768)  can1  700   [8]  01 02 00 00 06 00 00 00
 (2022-06-02 22:47:36.173759)  can1  700   [8]  01 02 00 00 06 00 00 00
 (2022-06-02 22:47:36.273762)  can1  700   [8]  01 02 00 00 06 00 00 00
 (2022-06-02 22:47:36.373762)  can1  700   [8]  01 02 00 00 06 00 00 00
 (2022-06-02 22:47:36.473761)  can1  700   [8]  01 02 00 00 06 00 00 00
 (2022-06-02 22:47:36.573753)  can1  700   [8]  01 02 00 00 06 00 00 00
 (2022-06-02 22:47:36.673764)  can1  700   [8]  01 02 00 00 06 00 00 00
 (2022-06-02 22:47:36.773752)  can1  700   [8]  01 02 00 00 06 00 00 00
 (2022-06-02 22:47:36.873762)  can1  700   [8]  01 02 00 00 06 00 00 00
 (2022-06-02 22:47:36.973753)  can1  700   [8]  01 02 00 00 06 00 00 00
 (2022-06-02 22:47:37.073760)  can1  700   [8]  01 02 00 00 06 00 00 00
 (2022-06-02 22:47:37.173762)  can1  700   [8]  01 02 00 00 06 00 00 00
 (2022-06-02 22:47:37.273757)  can1  700   [8]  01 02 00 00 06 00 00 00
 (2022-06-02 22:47:37.373756)  can1  700   [8]  01 02 00 00 06 00 00 00
 (2022-06-02 22:47:37.473734)  can1  700   [8]  01 02 00 00 06 00 00 00
 (2022-06-02 22:47:37.573725)  can1  700   [8]  01 02 00 00 06 00 00 00
 (2022-06-02 22:47:37.673750)  can1  700   [8]  01 02 00 00 06 00 00 00
 (2022-06-02 22:47:37.773729)  can1  700   [8]  01 02 00 00 06 00 00 00
 (2022-06-02 22:47:37.873730)  can1  700   [8]  01 02 00 00 06 00 00 00
 (2022-06-02 22:47:37.973715)  can1  700   [8]  01 02 00 00 06 00 00 00
 (2022-06-02 22:47:38.073713)  can1  700   [8]  01 02 00 00 06 00 00 00
 (2022-06-02 22:47:38.173715)  can1  700   [8]  01 02 00 00 06 00 00 00
 (2022-06-02 22:47:38.275278)  can1  700   [8]  01 02 00 00 06 00 00 00
 (2022-06-02 22:47:38.373713)  can1  700   [8]  01 02 00 00 06 00 00 00
 (2022-06-02 22:47:38.473714)  can1  700   [8]  01 02 00 00 06 00 00 00
 (2022-06-02 22:47:38.573710)  can1  700   [8]  01 02 00 00 06 00 00 00
 (2022-06-02 22:47:38.673733)  can1  700   [8]  01 02 00 00 06 00 00 00
 (2022-06-02 22:47:38.775264)  can1  700   [8]  01 02 00 00 06 00 00 00
 (2022-06-02 22:47:38.873640)  can1  700   [8]  01 02 00 00 06 00 00 00
 (2022-06-02 22:47:38.973677)  can1  700   [8]  01 02 00 00 06 00 00 00
 (2022-06-02 22:47:39.073650)  can1  700   [8]  01 02 00 00 06 00 00 00
 (2022-06-02 22:47:39.173647)  can1  700   [8]  01 02 00 00 06 00 00 00
 (2022-06-02 22:47:39.273650)  can1  700   [8]  01 02 00 00 06 00 00 00
 (2022-06-02 22:47:39.373624)  can1  700   [8]  01 02 00 00 06 00 00 00
 (2022-06-02 22:47:39.473623)  can1  700   [8]  01 02 00 00 06 00 00 00
 (2022-06-02 22:47:39.573625)  can1  700   [8]  01 02 00 00 06 00 00 00
 (2022-06-02 22:47:39.673621)  can1  700   [8]  01 02 00 00 06 00 00 00
 (2022-06-02 22:47:39.773628)  can1  700   [8]  01 02 00 00 06 00 00 00
 (2022-06-02 22:49:58.125771)  can1  100   [8]  06 00 00 00 B3 01 F0 00
 (2022-06-02 22:49:58.135760)  can1  101   [8]  00 00 00 00 00 00 00 00
 (2022-06-02 22:49:58.145756)  can1  102   [8]  02 9A 01 00 00 80 03 00
 (2022-06-02 22:49:58.155738)  can1  200   [8]  FF 00 00 00 FA 00 1A FF
 (2022-06-02 22:49:58.165770)  can1  110   [8]  01 00 00 00 00 00 00 00
 (2022-06-02 22:49:58.175769)  can1  201   [8]  02 00 00 00 00 00 00 00
 (2022-06-02 22:49:58.185756)  can1  700   [8]  01 02 00 00 06 00 00 00
 (2022-06-02 22:49:58.195724)  can1  202   [8]  01 01 01 00 00 00 00 00
 (2022-06-02 22:49:58.225724)  can1  100   [8]  06 00 00 00 B3 01 F0 00
 (2022-06-02 22:49:58.235725)  can1  101   [8]  00 00 00 00 00 00 00 00
 (2022-06-02 22:49:58.245728)  can1  102   [8]  02 9A 01 00 00 80 03 00
 (2022-06-02 22:49:58.255725)  can1  200   [8]  FF 00 00 00 FA 00 1A FF
 (2022-06-02 22:49:58.265739)  can1  110   [8]  01 00 00 00 00 00 00 00
 (2022-06-02 22:49:58.272127)  can1  108   [8]  01 F4 01 76 F4 01 00 00
 (2022-06-02 22:49:58.272342)  can1  109   [8]  02 00 00 00 00 20 00 00
 (2022-06-02 22:49:58.275731)  can1  201   [8]  02 00 00 00 00 00 00 00
 (2022-06-02 22:49:58.285750)  can1  700   [8]  01 02 00 00 06 00 00 00
 (2022-06-02 22:49:58.295723)  can1  202   [8]  01 01 01 00 00 00 00 00
 (2022-06-02 22:49:58.325710)  can1  100   [8]  06 00 00 00 B3 01 64 00
 (2022-06-02 22:49:58.335713)  can1  101   [8]  00 00 00 00 00 F4 01 00
 (2022-06-02 22:49:58.346747)  can1  102   [8]  02 9A 01 00 00 88 01 00
 (2022-06-02 22:49:58.356757)  can1  200   [8]  FF 00 00 00 FA 00 0A 64
 (2022-06-02 22:49:58.366735)  can1  110   [8]  01 00 00 00 00 00 00 00
 (2022-06-02 22:49:58.372649)  can1  108   [8]  01 F4 01 1F B3 01 00 00
 (2022-06-02 22:49:58.372850)  can1  109   [8]  02 00 00 00 00 20 00 00
 (2022-06-02 22:49:58.376769)  can1  201   [8]  02 00 00 00 00 00 00 00
 (2022-06-02 22:49:58.386767)  can1  700   [8]  01 02 00 00 06 00 00 00
 (2022-06-02 22:49:58.396760)  can1  202   [8]  01 01 01 00 00 00 00 00
 (2022-06-02 22:49:58.426730)  can1  100   [8]  06 00 00 00 B3 01 64 00
 (2022-06-02 22:49:58.436754)  can1  101   [8]  00 00 00 00 00 F4 01 00
 (2022-06-02 22:49:58.446752)  can1  102   [8]  02 9A 01 00 00 88 01 00
 (2022-06-02 22:49:58.456772)  can1  200   [8]  FF 00 00 00 FA 00 0A 64
 (2022-06-02 22:49:58.466777)  can1  110   [8]  01 00 00 00 00 00 00 00
 (2022-06-02 22:49:58.473124)  can1  108   [8]  01 F4 01 1F B3 01 00 00
 (2022-06-02 22:49:58.473373)  can1  109   [8]  02 00 00 00 00 20 00 00
 (2022-06-02 22:49:58.476784)  can1  201   [8]  02 00 00 00 00 00 00 00
 (2022-06-02 22:49:58.488329)  can1  700   [8]  01 02 00 00 06 00 00 00
 (2022-06-02 22:49:58.498980)  can1  202   [8]  01 01 01 00 00 00 00 00
 (2022-06-02 22:49:58.526779)  can1  100   [8]  06 00 00 00 B3 01 64 00
 (2022-06-02 22:49:58.536787)  can1  101   [8]  00 00 00 00 00 F4 01 00
 (2022-06-02 22:49:58.546765)  can1  102   [8]  02 9A 01 00 00 88 01 00
 (2022-06-02 22:49:58.556788)  can1  200   [8]  FF 00 00 00 FA 00 0A 64
 (2022-06-02 22:49:58.566815)  can1  110   [8]  01 00 00 00 00 00 00 00
 (2022-06-02 22:49:58.573647)  can1  108   [8]  01 F4 01 1F B3 01 00 00
 (2022-06-02 22:49:58.573847)  can1  109   [8]  02 01 00 00 00 20 00 00
 (2022-06-02 22:49:58.576801)  can1  201   [8]  02 00 00 00 00 00 00 00
 (2022-06-02 22:49:58.586776)  can1  700   [8]  01 02 00 00 06 00 00 00
 (2022-06-02 22:49:58.596790)  can1  202   [8]  01 01 01 00 00 00 00 00
 (2022-06-02 22:49:58.625719)  can1  100   [8]  06 00 00 00 B3 01 64 00
 (2022-06-02 22:49:58.635719)  can1  101   [8]  00 00 00 00 00 F4 01 00
 (2022-06-02 22:49:58.645720)  can1  102   [8]  02 9A 01 00 00 88 01 00
 (2022-06-02 22:49:58.655721)  can1  200   [8]  FF 00 00 00 FA 00 0A 64
 (2022-06-02 22:49:58.665737)  can1  110   [8]  01 00 00 00 00 00 00 00
 (2022-06-02 22:49:58.674135)  can1  108   [8]  01 F4 01 1F B3 01 00 00
 (2022-06-02 22:49:58.674334)  can1  109   [8]  02 00 00 00 00 20 00 00
 (2022-06-02 22:49:58.675761)  can1  201   [8]  02 00 00 00 00 00 00 00
 (2022-06-02 22:49:58.685753)  can1  700   [8]  01 02 00 00 06 00 00 00
 (2022-06-02 22:49:58.695735)  can1  202   [8]  01 01 01 00 00 00 00 00
 (2022-06-02 22:49:58.725741)  can1  100   [8]  06 00 00 00 B3 01 64 00
 (2022-06-02 22:49:58.735738)  can1  101   [8]  00 00 00 00 00 F4 01 00
 (2022-06-02 22:49:58.745743)  can1  102   [8]  02 9A 01 00 00 88 01 00
 (2022-06-02 22:49:58.755746)  can1  200   [8]  FF 00 00 00 FA 00 0A 64
 (2022-06-02 22:49:58.765750)  can1  110   [8]  01 00 00 00 00 00 00 00
 (2022-06-02 22:49:58.774627)  can1  108   [8]  01 F4 01 1F B3 01 00 00
 (2022-06-02 22:49:58.774842)  can1  109   [8]  02 01 00 00 00 20 00 00
 (2022-06-02 22:49:58.775781)  can1  201   [8]  02 00 00 00 00 00 00 00
 (2022-06-02 22:49:58.785766)  can1  700   [8]  01 02 00 00 06 00 00 00
 (2022-06-02 22:49:58.795750)  can1  202   [8]  01 01 01 00 00 00 00 00
 (2022-06-02 22:49:58.825768)  can1  100   [8]  06 00 00 00 B3 01 64 00
 (2022-06-02 22:49:58.835727)  can1  101   [8]  00 00 00 00 00 62 01 00
 (2022-06-02 22:49:58.845726)  can1  102   [8]  02 9A 01 00 00 88 01 00
 (2022-06-02 22:49:58.855728)  can1  200   [8]  FF 00 00 00 FA 00 0A 64
 (2022-06-02 22:49:58.865736)  can1  110   [8]  01 00 00 00 00 00 00 00
 (2022-06-02 22:49:58.875108)  can1  108   [8]  01 F4 01 1F B3 01 00 00
 (2022-06-02 22:49:58.875328)  can1  109   [8]  02 00 00 00 00 20 00 00
 (2022-06-02 22:49:58.875742)  can1  201   [8]  02 00 00 00 00 00 00 00
 (2022-06-02 22:49:58.885752)  can1  700   [8]  01 02 00 00 06 00 00 00
 (2022-06-02 22:49:58.895736)  can1  202   [8]  01 01 01 00 00 00 00 00
 (2022-06-02 22:49:58.925731)  can1  100   [8]  06 00 00 00 B3 01 64 00
 (2022-06-02 22:49:58.935726)  can1  101   [8]  00 00 00 00 00 62 01 00
 (2022-06-02 22:49:58.945724)  can1  102   [8]  02 9A 01 00 00 88 01 00
 (2022-06-02 22:49:58.955727)  can1  200   [8]  FF 00 00 00 FA 00 0A 64
 (2022-06-02 22:49:58.965736)  can1  110   [8]  01 00 00 00 00 00 00 00
 (2022-06-02 22:49:58.975604)  can1  108   [8]  01 F4 01 1F B3 01 00 00
 (2022-06-02 22:49:58.975823)  can1  109   [8]  02 01 00 00 00 20 00 00
 (2022-06-02 22:49:58.976069)  can1  201   [8]  02 00 00 00 00 00 00 00
 (2022-06-02 22:49:58.986757)  can1  700   [8]  01 02 00 00 06 00 00 00
 (2022-06-02 22:49:58.996772)  can1  202   [8]  01 01 01 00 00 00 00 00
 (2022-06-02 22:49:59.025738)  can1  100   [8]  06 00 00 00 B3 01 64 00
 (2022-06-02 22:49:59.035739)  can1  101   [8]  00 00 00 00 00 62 01 00
 (2022-06-02 22:49:59.045726)  can1  102   [8]  02 9A 01 00 00 88 01 00
 (2022-06-02 22:49:59.055783)  can1  200   [8]  FF 00 00 00 FA 00 0A 64
 (2022-06-02 22:49:59.065753)  can1  110   [8]  01 00 00 00 00 00 00 00
 (2022-06-02 22:49:59.075753)  can1  201   [8]  02 00 00 00 00 00 00 00
 (2022-06-02 22:49:59.076084)  can1  108   [8]  01 F4 01 1F B3 01 00 00
 (2022-06-02 22:49:59.076321)  can1  109   [8]  02 01 00 00 00 20 00 00
 (2022-06-02 22:49:59.085765)  can1  700   [8]  01 02 00 00 06 00 00 00
 (2022-06-02 22:49:59.095760)  can1  202   [8]  01 01 01 00 00 00 00 00
 (2022-06-02 22:49:59.125745)  can1  100   [8]  06 00 00 00 B3 01 64 00
 (2022-06-02 22:49:59.135776)  can1  101   [8]  00 00 00 00 00 62 01 00
 (2022-06-02 22:49:59.145765)  can1  102   [8]  02 9A 01 00 00 88 01 00
 (2022-06-02 22:49:59.155747)  can1  200   [8]  FF 00 00 00 FA 00 0A 64
 (2022-06-02 22:49:59.165765)  can1  110   [8]  01 00 00 00 00 00 00 00
 (2022-06-02 22:49:59.175755)  can1  201   [8]  02 00 00 00 00 00 00 00
 (2022-06-02 22:49:59.176596)  can1  108   [8]  01 F4 01 1F B3 01 00 00
 (2022-06-02 22:49:59.176985)  can1  109   [8]  02 01 00 00 00 20 00 00
 (2022-06-02 22:49:59.185764)  can1  700   [8]  01 02 00 00 06 00 00 00
 (2022-06-02 22:49:59.195769)  can1  202   [8]  01 01 01 00 00 00 00 00
 (2022-06-02 22:49:59.225710)  can1  100   [8]  06 00 00 00 B3 01 64 00
 (2022-06-02 22:49:59.235701)  can1  101   [8]  00 00 00 00 00 62 01 00
 (2022-06-02 22:49:59.245697)  can1  102   [8]  02 9A 01 00 00 88 01 00
 (2022-06-02 22:49:59.255697)  can1  200   [8]  FF 00 00 00 FA 00 0A 64
 (2022-06-02 22:49:59.265712)  can1  110   [8]  01 00 00 00 00 00 00 00
 (2022-06-02 22:49:59.275713)  can1  201   [8]  02 00 00 00 00 00 00 00
 (2022-06-02 22:49:59.277074)  can1  108   [8]  01 F4 01 1F B3 01 00 00
 (2022-06-02 22:49:59.277288)  can1  109   [8]  02 01 00 00 00 20 00 00
 (2022-06-02 22:49:59.285763)  can1  700   [8]  01 02 00 00 06 00 00 00
 (2022-06-02 22:49:59.295721)  can1  202   [8]  01 01 01 00 00 00 00 00
 (2022-06-02 22:49:59.325725)  can1  100   [8]  06 00 00 00 B3 01 64 00
 (2022-06-02 22:49:59.335730)  can1  101   [8]  00 00 00 00 00 62 01 00
 (2022-06-02 22:49:59.345724)  can1  102   [8]  02 9A 01 00 00 88 01 00
 (2022-06-02 22:49:59.355728)  can1  200   [8]  FF 00 00 00 FA 00 0A 64
 (2022-06-02 22:49:59.365741)  can1  110   [8]  01 00 00 00 00 00 00 00
 (2022-06-02 22:49:59.375740)  can1  201   [8]  02 00 00 00 00 00 00 00
 (2022-06-02 22:49:59.377588)  can1  108   [8]  01 F4 01 1F B3 01 00 00
 (2022-06-02 22:49:59.377804)  can1  109   [8]  02 00 00 00 00 20 00 00
 (2022-06-02 22:49:59.385753)  can1  700   [8]  01 02 00 00 06 00 00 00
 (2022-06-02 22:49:59.395753)  can1  202   [8]  01 01 01 00 00 00 00 00
 (2022-06-02 22:49:59.425746)  can1  100   [8]  06 00 00 00 B3 01 64 00
 (2022-06-02 22:49:59.435745)  can1  101   [8]  00 00 00 00 00 62 01 00
 (2022-06-02 22:49:59.445743)  can1  102   [8]  02 9A 01 00 00 88 01 00
 (2022-06-02 22:49:59.455741)  can1  200   [8]  FF 00 00 00 FA 00 0A 64
 (2022-06-02 22:49:59.465749)  can1  110   [8]  01 00 00 00 00 00 00 00
 (2022-06-02 22:49:59.475753)  can1  201   [8]  02 00 00 00 00 00 00 00
 (2022-06-02 22:49:59.478093)  can1  108   [8]  01 F4 01 1F B3 01 00 00
 (2022-06-02 22:49:59.478311)  can1  109   [8]  02 00 00 00 00 20 00 00
 (2022-06-02 22:49:59.485761)  can1  700   [8]  01 02 00 00 06 00 00 00
 (2022-06-02 22:49:59.495767)  can1  202   [8]  01 01 01 00 00 00 00 00
 (2022-06-02 22:49:59.525743)  can1  100   [8]  06 00 00 00 B3 01 64 00
 (2022-06-02 22:49:59.535745)  can1  101   [8]  00 00 00 00 00 62 01 00
 (2022-06-02 22:49:59.545741)  can1  102   [8]  02 9A 01 00 00 88 01 00
 (2022-06-02 22:49:59.555747)  can1  200   [8]  FF 00 00 00 FA 00 0A 64
 (2022-06-02 22:49:59.565752)  can1  110   [8]  01 00 00 00 00 00 00 00
 (2022-06-02 22:49:59.575771)  can1  201   [8]  02 00 00 00 00 00 00 00
 (2022-06-02 22:49:59.578596)  can1  108   [8]  01 F4 01 1F B3 01 00 00
 (2022-06-02 22:49:59.578805)  can1  109   [8]  02 00 00 00 00 20 00 00
 (2022-06-02 22:49:59.585767)  can1  700   [8]  01 02 00 00 06 00 00 00
 (2022-06-02 22:49:59.595779)  can1  202   [8]  01 01 01 00 00 00 00 00
 (2022-06-02 22:49:59.625713)  can1  100   [8]  06 00 00 00 B3 01 64 00
 (2022-06-02 22:49:59.635715)  can1  101   [8]  00 00 00 00 00 62 01 00
 (2022-06-02 22:49:59.645708)  can1  102   [8]  02 9A 01 00 00 88 01 00
 (2022-06-02 22:49:59.655711)  can1  200   [8]  FF 00 00 00 FA 00 0A 64
 (2022-06-02 22:49:59.665719)  can1  110   [8]  01 00 00 00 00 00 00 00
 (2022-06-02 22:49:59.675722)  can1  201   [8]  02 00 00 00 00 00 00 00
 (2022-06-02 22:49:59.679054)  can1  108   [8]  01 F4 01 1F B3 01 00 00
 (2022-06-02 22:49:59.679273)  can1  109   [8]  02 00 00 00 00 20 00 00
 (2022-06-02 22:49:59.685726)  can1  700   [8]  01 02 00 00 06 00 00 00
 (2022-06-02 22:49:59.695715)  can1  202   [8]  01 01 01 00 00 00 00 00
 (2022-06-02 22:49:59.725745)  can1  100   [8]  06 00 00 00 B3 01 64 00
 (2022-06-02 22:49:59.735753)  can1  101   [8]  00 00 00 00 00 62 01 00
 (2022-06-02 22:49:59.745792)  can1  102   [8]  02 9A 01 00 00 88 01 00
 (2022-06-02 22:49:59.755757)  can1  200   [8]  FF 00 00 00 FA 00 0A 64
 (2022-06-02 22:49:59.765768)  can1  110   [8]  01 00 00 00 00 00 00 00
 (2022-06-02 22:49:59.775769)  can1  201   [8]  02 00 00 00 00 00 00 00
 (2022-06-02 22:49:59.779598)  can1  108   [8]  01 F4 01 1F B3 01 00 00
 (2022-06-02 22:49:59.779811)  can1  109   [8]  02 00 00 00 00 20 00 00
 (2022-06-02 22:49:59.785773)  can1  700   [8]  01 02 00 00 06 00 00 00
 (2022-06-02 22:49:59.795765)  can1  202   [8]  01 01 01 00 00 00 00 00
 (2022-06-02 22:49:59.825740)  can1  100   [8]  06 00 00 00 B3 01 64 00
 (2022-06-02 22:49:59.835743)  can1  101   [8]  00 00 00 00 00 62 01 00
 (2022-06-02 22:49:59.845741)  can1  102   [8]  02 9A 01 00 00 88 01 00
 (2022-06-02 22:49:59.855740)  can1  200   [8]  FF 00 00 00 FA 00 0A 64
 (2022-06-02 22:49:59.865748)  can1  110   [8]  01 00 00 00 00 00 00 00
 (2022-06-02 22:49:59.875750)  can1  201   [8]  02 00 00 00 00 00 00 00
 (2022-06-02 22:49:59.880079)  can1  108   [8]  01 F4 01 1F B3 01 00 00
 (2022-06-02 22:49:59.880290)  can1  109   [8]  02 01 00 00 00 20 00 00
 (2022-06-02 22:49:59.885752)  can1  700   [8]  01 02 00 00 06 00 00 00
 (2022-06-02 22:49:59.895756)  can1  202   [8]  01 01 01 00 00 00 00 00
 (2022-06-02 22:49:59.925729)  can1  100   [8]  06 00 00 00 B3 01 64 00
 (2022-06-02 22:49:59.935735)  can1  101   [8]  00 00 00 00 00 62 01 00
 (2022-06-02 22:49:59.945730)  can1  102   [8]  02 9A 01 00 00 88 01 00
 (2022-06-02 22:49:59.955731)  can1  200   [8]  FF 00 00 00 FA 00 0A 64
 (2022-06-02 22:49:59.965743)  can1  110   [8]  01 00 00 00 00 00 00 00
 (2022-06-02 22:49:59.975779)  can1  201   [8]  02 00 00 00 00 00 00 00
 (2022-06-02 22:49:59.980610)  can1  108   [8]  01 F4 01 1F B3 01 00 00
 (2022-06-02 22:49:59.980821)  can1  109   [8]  02 01 00 00 00 20 00 00
 (2022-06-02 22:49:59.986787)  can1  700   [8]  01 02 00 00 06 00 00 00
 (2022-06-02 22:49:59.996789)  can1  202   [8]  01 01 01 00 00 00 00 00
 (2022-06-02 22:50:00.025719)  can1  100   [8]  06 00 00 00 B3 01 64 00
 (2022-06-02 22:50:00.035721)  can1  101   [8]  00 00 00 00 00 62 01 00
 (2022-06-02 22:50:00.045717)  can1  102   [8]  02 9A 01 00 00 88 01 00
 (2022-06-02 22:50:00.055729)  can1  200   [8]  FF 00 00 00 FA 00 0A 64
 (2022-06-02 22:50:00.065742)  can1  110   [8]  01 00 00 00 00 00 00 00
 (2022-06-02 22:50:00.075745)  can1  201   [8]  02 00 00 00 00 00 00 00
 (2022-06-02 22:50:00.081053)  can1  108   [8]  01 F4 01 1F B3 01 00 00
 (2022-06-02 22:50:00.081269)  can1  109   [8]  02 01 00 00 00 20 00 00
 (2022-06-02 22:50:00.086768)  can1  700   [8]  01 02 00 00 06 00 00 00
 (2022-06-02 22:50:00.096779)  can1  202   [8]  01 01 01 00 00 00 00 00
 (2022-06-02 22:50:00.125703)  can1  100   [8]  06 00 00 00 B3 01 64 00
 (2022-06-02 22:50:00.135700)  can1  101   [8]  00 00 00 00 00 62 01 00
 (2022-06-02 22:50:00.145697)  can1  102   [8]  02 9A 01 00 00 88 48 00
 (2022-06-02 22:50:00.155700)  can1  200   [8]  FF 00 00 00 FA 00 0A 64
 (2022-06-02 22:50:00.165703)  can1  110   [8]  01 00 00 00 00 00 00 00
 (2022-06-02 22:50:00.175701)  can1  201   [8]  02 00 00 00 00 00 00 00
